
T2B70 000:000 SEGGER J-Link V6.16c Log File (0001ms, 0001ms total)
T2B70 000:000 DLL Compiled: Jun 16 2017 18:14:49 (0001ms, 0001ms total)
T2B70 000:000 Logging started @ 2017-10-03 14:56 (0001ms, 0001ms total)
T2B70 000:001 JLINK_SetWarnOutHandler(...) (0000ms, 0001ms total)
T2B70 000:001 JLINK_OpenEx(...)
Firmware: J-Link V10 compiled Oct  9 2015 20:36:39
Hardware: V10.10
S/N: 260103141
OEM: SEGGER-EDU
Feature(s): FlashBP, GDBWEBSRV Webserver running on local port 19080 (2241ms, 2242ms total)
T2B70 000:001   returns O.K. (2241ms, 2242ms total)
T2B70 002:242 JLINK_GetEmuCaps()  returns 0xB9FE7BBF (0000ms, 2242ms total)
T2B70 002:242 JLINK_TIF_GetAvailable(...) (0000ms, 2242ms total)
T2B70 002:242 JLINK_SetErrorOutHandler(...) (0000ms, 2242ms total)
T2B70 002:242 JLINK_ExecCommand("ProjectFile = "C:\Users\shutson1\Documents\GitHub\Tiva_Usb1\JLinkSettings.ini"", ...).   returns 0x00 (0112ms, 2354ms total)
T2B70 002:354 JLINK_ExecCommand("Device = TM4C123GH6PM", ...). Device "TM4C123GH6PM" selected.  returns 0x00 (0002ms, 2356ms total)
T2B70 002:356 JLINK_ExecCommand("DisableConnectionTimeout", ...).   returns 0x01 (0000ms, 2356ms total)
T2B70 002:356 JLINK_GetHardwareVersion()  returns 0x18A88 (0000ms, 2356ms total)
T2B70 002:356 JLINK_GetDLLVersion()  returns 61603 (0000ms, 2356ms total)
T2B70 002:356 JLINK_GetDLLVersion()  returns 61603 (0000ms, 2356ms total)
T2B70 002:356 JLINK_GetCompileDateTime() (0000ms, 2356ms total)
T2B70 002:356 JLINK_GetFirmwareString(...) (0000ms, 2356ms total)
T2B70 002:356 JLINK_GetHardwareVersion()  returns 0x18A88 (0000ms, 2356ms total)
T2B70 002:356 JLINK_TIF_Select(JLINKARM_TIF_JTAG)  returns 0x00 (0001ms, 2357ms total)
T2B70 002:357 JLINK_SetSpeed(5000) (0000ms, 2357ms total)
T2B70 002:357 JLINK_GetIdData(...) >0x2F8 JTAG>TotalIRLen = 4, IRPrint = 0x01 >0x30 JTAG> >0x30 JTAG>JTAG chain detection found 1 devices: #0 Id: 0x4BA00477, IRLen: 04, CoreSight JTAG-DPScanning APs, stopping at first AHB-AP found. >0x78 JTAG> >0x48 JTAG> >0x48 JTAG>AP[0] IDR: 0x24770011 (AHB-AP) >0x40 JTAG> >0x48 JTAG> >0x48 JTAG>AHB-AP ROM: 0xE00FF000 (Base addr. of first ROM table) >0x78 JTAG> >0x40 JTAG> >0x30 JTAG> >0x40 JTAG> >0x40 JTAG> >0x30 JTAG> >0x40 JTAG> >0x48 JTAG>
CPUID reg.: 0x410FC241. Implementer code: 0x41 (ARM)Found Cortex-M4 r0p1, Little endian. -- CPU_ReadMem(4 bytes @ 0xE000EDF0) -- CPU_WriteMem(4 bytes @ 0xE000EDF0) -- CPU_ReadMem(4 bytes @ 0xE0002000)FPUnit: 6 code (BP) slots and 2 literal slots -- CPU_ReadMem(4 bytes @ 0xE000EDFC) -- CPU_WriteMem(4 bytes @ 0xE000EDFC) -- CPU_ReadMem(4 bytes @ 0xE0001000) -- CPU_WriteMem(4 bytes @ 0xE0001000) -- CPU_ReadMem(4 bytes @ 0xE000ED88) -- CPU_WriteMem(4 bytes @ 0xE000ED88) -- CPU_ReadMem(4 bytes @ 0xE000ED88)
 -- CPU_WriteMem(4 bytes @ 0xE000ED88)CoreSight components:ROMTbl[0] @ E00FF000 -- CPU_ReadMem(16 bytes @ 0xE00FF000) -- CPU_ReadMem(16 bytes @ 0xE000EFF0) -- CPU_ReadMem(16 bytes @ 0xE000EFE0)ROMTbl[0][0]: E000E000, CID: B105E00D, PID: 000BB00C SCS -- CPU_ReadMem(16 bytes @ 0xE0001FF0) -- CPU_ReadMem(16 bytes @ 0xE0001FE0)ROMTbl[0][1]: E0001000, CID: B105E00D, PID: 003BB002 DWT -- CPU_ReadMem(16 bytes @ 0xE0002FF0) -- CPU_ReadMem(16 bytes @ 0xE0002FE0)
ROMTbl[0][2]: E0002000, CID: B105E00D, PID: 002BB003 FPB -- CPU_ReadMem(16 bytes @ 0xE0000FF0) -- CPU_ReadMem(16 bytes @ 0xE0000FE0)ROMTbl[0][3]: E0000000, CID: B105E00D, PID: 003BB001 ITM -- CPU_ReadMem(16 bytes @ 0xE00FF010) -- CPU_ReadMem(16 bytes @ 0xE0040FF0) -- CPU_ReadMem(16 bytes @ 0xE0040FE0)ROMTbl[0][4]: E0040000, CID: B105900D, PID: 000BB9A1 TPIU -- CPU_ReadMem(16 bytes @ 0xE0041FF0) -- CPU_ReadMem(16 bytes @ 0xE0041FE0)ROMTbl[0][5]: E0041000, CID: B105900D, PID: 000BB925 ETM
 -- CPU_ReadMem(4 bytes @ 0x400FE0F0) ScanLen=4 NumDevices=1 aId[0]=0x4BA00477 aIrRead[0]=0 aScanLen[0]=0 aScanRead[0]=0 (0011ms, 2368ms total)
T2B70 002:368 JLINK_JTAG_GetDeviceID(DeviceIndex = 0)  returns 0x4BA00477 (0000ms, 2368ms total)
T2B70 002:368 JLINK_JTAG_GetDeviceInfo(DeviceIndex = 0)  returns 0x00 (0000ms, 2368ms total)
T2B70 002:368 JLINK_GetDLLVersion()  returns 61603 (0000ms, 2368ms total)
T2B70 002:368 JLINK_CORE_GetFound()  returns 0xE0000FF (0000ms, 2368ms total)
T2B70 002:368 JLINK_GetDebugInfo(0x100 = JLINKARM_ROM_TABLE_ADDR_INDEX) -- Value=0xE00FF000  returns 0x00 (0000ms, 2368ms total)
T2B70 002:368 JLINK_GetDebugInfo(0x100 = JLINKARM_ROM_TABLE_ADDR_INDEX) -- Value=0xE00FF000  returns 0x00 (0000ms, 2368ms total)
T2B70 002:368 JLINK_GetDebugInfo(0x101 = JLINKARM_DEBUG_INFO_ETM_ADDR_INDEX) -- Value=0xE0041000  returns 0x00 (0000ms, 2368ms total)
T2B70 002:368 JLINK_ReadMemEx(0xE0041FD0, 0x0020 Bytes, ..., Flags = 0x02000004) -- CPU_ReadMem(32 bytes @ 0xE0041FD0) - Data: 04 00 00 00 00 00 00 00 00 00 00 00 00 00 00 00 ...  returns 0x20 (0000ms, 2368ms total)
T2B70 002:368 JLINK_GetDebugInfo(0x102 = JLINKARM_DEBUG_INFO_MTB_ADDR_INDEX) -- Value=0x00000000  returns 0x00 (0000ms, 2368ms total)
T2B70 002:368 JLINK_GetDebugInfo(0x103 = JLINKARM_DEBUG_INFO_TPIU_ADDR_INDEX) -- Value=0xE0040000  returns 0x00 (0000ms, 2368ms total)
T2B70 002:368 JLINK_GetDebugInfo(0x104 = JLINKARM_DEBUG_INFO_ITM_ADDR_INDEX) -- Value=0xE0000000  returns 0x00 (0000ms, 2368ms total)
T2B70 002:368 JLINK_GetDebugInfo(0x105 = JLINKARM_DEBUG_INFO_DWT_ADDR_INDEX) -- Value=0xE0001000  returns 0x00 (0000ms, 2368ms total)
T2B70 002:368 JLINK_GetDebugInfo(0x106 = JLINKARM_DEBUG_INFO_FPB_ADDR_INDEX) -- Value=0xE0002000  returns 0x00 (0000ms, 2368ms total)
T2B70 002:368 JLINK_GetDebugInfo(0x107 = JLINKARM_DEBUG_INFO_NVIC_ADDR_INDEX) -- Value=0xE000E000  returns 0x00 (0000ms, 2368ms total)
T2B70 002:368 JLINK_GetDebugInfo(0x10C = JLINKARM_DEBUG_INFO_DBG_ADDR_INDEX) -- Value=0xE000EDF0  returns 0x00 (0000ms, 2368ms total)
T2B70 002:368 JLINK_ReadMemU32(0xE000EF40, 0x0001 Items, ...) -- CPU_ReadMem(4 bytes @ 0xE000EF40) - Data: 21 00 11 10  returns 0x01 (0000ms, 2368ms total)
T2B70 002:368 JLINK_ReadMemU32(0xE000EF44, 0x0001 Items, ...) -- CPU_ReadMem(4 bytes @ 0xE000EF44) - Data: 11 00 00 11  returns 0x01 (0001ms, 2369ms total)
T2B70 002:369 JLINK_ReadMemU32(0xE000ED00, 0x0001 Items, ...) -- CPU_ReadMem(4 bytes @ 0xE000ED00) - Data: 41 C2 0F 41  returns 0x01 (0000ms, 2369ms total)
T2B70 002:369 JLINK_GetDebugInfo(0x10F = JLINKARM_DEBUG_INFO_HAS_CORTEX_M_SECURITY_EXT_INDEX) -- Value=0x00000000  returns 0x00 (0000ms, 2369ms total)
T2B70 002:369 JLINK_SetResetType(JLINKARM_CM3_RESET_TYPE_NORMAL)  returns JLINKARM_CM3_RESET_TYPE_NORMAL (0000ms, 2369ms total)
T2B70 002:369 JLINK_Reset() -- CPU is running -- CPU_WriteMem(4 bytes @ 0xE000EDF0) -- CPU is running -- CPU_WriteMem(4 bytes @ 0xE000EDFC)Setting AIRCR.SYSRESETREQ -- CPU is running -- CPU_WriteMem(4 bytes @ 0xE000ED0C) -- CPU_ReadMem(4 bytes @ 0xE000ED0C) -- CPU_ReadMem(4 bytes @ 0xE000EDF0) -- CPU_ReadMem(4 bytes @ 0xE000EDF0) -- CPU_ReadMem(4 bytes @ 0xE000EDF0) -- CPU is running -- CPU_WriteMem(4 bytes @ 0xE000EDF0) -- CPU is running -- CPU_WriteMem(4 bytes @ 0xE000EDFC)
 -- CPU_ReadMem(4 bytes @ 0xE000EDF0) >0x78 JTAG> >0x40 JTAG> >0x30 JTAG> >0x40 JTAG> >0x48 JTAG> >0x40 JTAG> -- CPU_WriteMem(4 bytes @ 0xE000EDFC) -- CPU_WriteMem(4 bytes @ 0xE0001028) -- CPU_WriteMem(4 bytes @ 0xE0001038) -- CPU_WriteMem(4 bytes @ 0xE0001048) -- CPU_WriteMem(4 bytes @ 0xE0001058) -- CPU_ReadMem(4 bytes @ 0x400FE0F0) -- CPU_WriteMem(4 bytes @ 0xE0002000) -- CPU_ReadMem(4 bytes @ 0xE000EDFC) -- CPU_ReadMem(4 bytes @ 0xE0001000) (0067ms, 2436ms total)
T2B70 002:436 JLINK_ReadReg(R15 (PC))  returns 0x0000026C (0000ms, 2436ms total)
T2B70 002:436 JLINK_ReadReg(XPSR)  returns 0x01000000 (0000ms, 2436ms total)
T2B70 002:436 JLINK_Halt()  returns 0x00 (0000ms, 2436ms total)
T2B70 002:436 JLINK_ReadMemU32(0xE000EDF0, 0x0001 Items, ...) -- CPU_ReadMem(4 bytes @ 0xE000EDF0) - Data: 03 00 03 00  returns 0x01 (0000ms, 2436ms total)
T2B70 002:437 JLINK_WriteU32(0xE000EDF0, 0xA05F0003) -- CPU_WriteMem(4 bytes @ 0xE000EDF0)  returns 0x00 (0000ms, 2436ms total)
T2B70 002:437 JLINK_WriteU32(0xE000EDFC, 0x01000000) -- CPU_WriteMem(4 bytes @ 0xE000EDFC)  returns 0x00 (0000ms, 2436ms total)
T2B70 002:437 JLINK_GetHWStatus(...)  returns 0x00 (0000ms, 2436ms total)
T2B70 002:437 JLINK_GetNumBPUnits(Type = 0xFFFFFF00)  returns 0x06 (0000ms, 2436ms total)
T2B70 002:437 JLINK_GetNumBPUnits(Type = 0xF0)  returns 0x2000 (0000ms, 2436ms total)
T2B70 002:437 JLINK_GetNumWPUnits()  returns 0x04 (0000ms, 2436ms total)
T2B70 002:437 JLINK_GetSpeed()  returns 0x1388 (0000ms, 2436ms total)
T2B70 002:437 JLINK_ReadMemU32(0xE000E004, 0x0001 Items, ...) -- CPU_ReadMem(4 bytes @ 0xE000E004) - Data: 04 00 00 00  returns 0x01 (0001ms, 2437ms total)
T2B70 002:438 JLINK_ReadMemU32(0xE000E004, 0x0001 Items, ...) -- CPU_ReadMem(4 bytes @ 0xE000E004) - Data: 04 00 00 00  returns 0x01 (0000ms, 2437ms total)
T2B70 002:438 JLINK_WriteMemEx(0xE0001000, 0x001C Bytes, ..., Flags = 0x02000004) - Data: 01 00 00 00 00 00 00 00 00 00 00 00 00 00 00 00 ... -- CPU_WriteMem(28 bytes @ 0xE0001000)  returns 0x1C (0001ms, 2438ms total)
T2B70 002:439 JLINK_ReadReg(R15 (PC))  returns 0x0000026C (0000ms, 2438ms total)
T2B70 002:439 JLINK_ReadReg(XPSR)  returns 0x01000000 (0000ms, 2438ms total)
T2B70 002:509 JLINK_SetResetType(JLINKARM_CM3_RESET_TYPE_NORMAL)  returns JLINKARM_CM3_RESET_TYPE_NORMAL (0000ms, 2438ms total)
T2B70 002:509 JLINK_Reset() -- CPU_WriteMem(4 bytes @ 0xE000EDF0) -- CPU_WriteMem(4 bytes @ 0xE000EDFC)Setting AIRCR.SYSRESETREQ -- CPU_WriteMem(4 bytes @ 0xE000ED0C) -- CPU_ReadMem(4 bytes @ 0xE000ED0C) -- CPU_ReadMem(4 bytes @ 0xE000EDF0) -- CPU_ReadMem(4 bytes @ 0xE000EDF0) -- CPU_ReadMem(4 bytes @ 0xE000EDF0) -- CPU_WriteMem(4 bytes @ 0xE000EDF0) -- CPU_WriteMem(4 bytes @ 0xE000EDFC) -- CPU_ReadMem(4 bytes @ 0xE000EDF0) >0x78 JTAG> >0x40 JTAG> >0x30 JTAG> >0x40 JTAG> >0x48 JTAG> >0x40 JTAG>
 -- CPU_WriteMem(4 bytes @ 0xE000EDFC) -- CPU_WriteMem(4 bytes @ 0xE0001028) -- CPU_WriteMem(4 bytes @ 0xE0001038) -- CPU_WriteMem(4 bytes @ 0xE0001048) -- CPU_WriteMem(4 bytes @ 0xE0001058) -- CPU_ReadMem(4 bytes @ 0x400FE0F0) -- CPU_WriteMem(4 bytes @ 0xE0002000) -- CPU_ReadMem(4 bytes @ 0xE000EDFC) -- CPU_ReadMem(4 bytes @ 0xE0001000) (0069ms, 2507ms total)
T2B70 002:578 JLINK_ReadReg(R15 (PC))  returns 0x0000026C (0000ms, 2507ms total)
T2B70 002:578 JLINK_ReadReg(XPSR)  returns 0x01000000 (0000ms, 2507ms total)
T2B70 002:578 JLINK_ReadMemEx(0x0000026C, 0x003C Bytes, ..., Flags = 0x02000000) -- CPU_ReadMem(128 bytes @ 0x00000240) -- Updating C cache (128 bytes @ 0x00000240) -- Read from C cache (60 bytes @ 0x0000026C) - Data: 4E F6 88 50 CE F2 00 00 01 68 41 F4 70 01 01 60 ...  returns 0x3C (0001ms, 2508ms total)
T2024 003:446 JLINK_ReadMemEx(0x0000026C, 0x0002 Bytes, ..., Flags = 0x02000000) -- Read from C cache (2 bytes @ 0x0000026C) - Data: 4E F6  returns 0x02 (0000ms, 2508ms total)
T2024 003:446 JLINK_SetBPEx(Addr = 0x00002594, Type = 0xFFFFFFF2)  returns 0x00000001 (0000ms, 2508ms total)
T2024 003:446 JLINK_Go() -- CPU_ReadMem(4 bytes @ 0xE0001000) -- CPU_WriteMem(4 bytes @ 0xE0002008) -- CPU_WriteMem(4 bytes @ 0xE000200C) -- CPU_WriteMem(4 bytes @ 0xE0002010) -- CPU_WriteMem(4 bytes @ 0xE0002014) -- CPU_WriteMem(4 bytes @ 0xE0002018) -- CPU_WriteMem(4 bytes @ 0xE000201C) -- CPU_WriteMem(4 bytes @ 0xE0001004) (0002ms, 2510ms total)
T2024 003:550 JLINK_IsHalted()  returns TRUE (0002ms, 2512ms total)
T2024 003:552 JLINK_Halt()  returns 0x00 (0000ms, 2510ms total)
T2024 003:552 JLINK_IsHalted()  returns TRUE (0000ms, 2510ms total)
T2024 003:552 JLINK_IsHalted()  returns TRUE (0000ms, 2510ms total)
T2024 003:552 JLINK_IsHalted()  returns TRUE (0000ms, 2510ms total)
T2024 003:552 JLINK_ReadReg(R15 (PC))  returns 0x00002594 (0000ms, 2510ms total)
T2024 003:552 JLINK_ReadReg(XPSR)  returns 0x61000000 (0000ms, 2510ms total)
T2024 003:552 JLINK_ClrBPEx(BPHandle = 0x00000001)  returns 0x00 (0000ms, 2510ms total)
T2024 003:552 JLINK_ReadMemU32(0xE000ED30, 0x0001 Items, ...) -- CPU_ReadMem(4 bytes @ 0xE000ED30) - Data: 02 00 00 00  returns 0x01 (0000ms, 2510ms total)
T2024 003:552 JLINK_ReadMemU32(0xE0001028, 0x0001 Items, ...) -- CPU_ReadMem(4 bytes @ 0xE0001028) - Data: 00 00 00 00  returns 0x01 (0001ms, 2511ms total)
T2024 003:553 JLINK_ReadMemU32(0xE0001038, 0x0001 Items, ...) -- CPU_ReadMem(4 bytes @ 0xE0001038) - Data: 00 02 00 00  returns 0x01 (0001ms, 2512ms total)
T2024 003:554 JLINK_ReadMemU32(0xE0001048, 0x0001 Items, ...) -- CPU_ReadMem(4 bytes @ 0xE0001048) - Data: 00 00 00 00  returns 0x01 (0000ms, 2512ms total)
T2024 003:554 JLINK_ReadMemU32(0xE0001058, 0x0001 Items, ...) -- CPU_ReadMem(4 bytes @ 0xE0001058) - Data: 00 00 00 00  returns 0x01 (0001ms, 2513ms total)
T2024 003:555 JLINK_ReadReg(R0)  returns 0x00002595 (0000ms, 2513ms total)
T2024 003:555 JLINK_ReadReg(R1)  returns 0x20000640 (0000ms, 2513ms total)
T2024 003:555 JLINK_ReadReg(R2)  returns 0x00000000 (0000ms, 2513ms total)
T2024 003:555 JLINK_ReadReg(R3)  returns 0x000022F9 (0000ms, 2513ms total)
T2024 003:555 JLINK_ReadReg(R4)  returns 0x00003138 (0000ms, 2513ms total)
T2024 003:555 JLINK_ReadReg(R5)  returns 0x00003138 (0000ms, 2513ms total)
T2024 003:555 JLINK_ReadReg(R6)  returns 0x00000000 (0000ms, 2513ms total)
T2024 003:555 JLINK_ReadReg(R7)  returns 0x00000000 (0000ms, 2513ms total)
T2024 003:555 JLINK_ReadReg(R8)  returns 0x00000000 (0000ms, 2513ms total)
T2024 003:555 JLINK_ReadReg(R9)  returns 0x00000000 (0000ms, 2513ms total)
T2024 003:555 JLINK_ReadReg(R10)  returns 0x00000000 (0000ms, 2513ms total)
T2024 003:555 JLINK_ReadReg(R11)  returns 0x00000000 (0000ms, 2513ms total)
T2024 003:555 JLINK_ReadReg(R12)  returns 0x00000000 (0000ms, 2513ms total)
T2024 003:555 JLINK_ReadReg(R13 (SP))  returns 0x20000640 (0000ms, 2513ms total)
T2024 003:555 JLINK_ReadReg(R14)  returns 0x000002E9 (0000ms, 2513ms total)
T2024 003:555 JLINK_ReadReg(R15 (PC))  returns 0x00002594 (0000ms, 2513ms total)
T2024 003:555 JLINK_ReadReg(XPSR)  returns 0x61000000 (0000ms, 2513ms total)
T2024 003:555 JLINK_ReadReg(MSP)  returns 0x20000640 (0000ms, 2513ms total)
T2024 003:555 JLINK_ReadReg(PSP)  returns 0x00000000 (0000ms, 2513ms total)
T2024 003:555 JLINK_ReadReg(CFBP)  returns 0x00000000 (0000ms, 2513ms total)
T2024 003:555 JLINK_ReadReg(FPSCR)  returns 0x00000000 (0004ms, 2517ms total)
T2024 003:559 JLINK_ReadReg(FPS0)  returns 0x00000000 (0000ms, 2517ms total)
T2024 003:559 JLINK_ReadReg(FPS1)  returns 0x00000000 (0000ms, 2517ms total)
T2024 003:559 JLINK_ReadReg(FPS2)  returns 0x00000000 (0000ms, 2517ms total)
T2024 003:559 JLINK_ReadReg(FPS3)  returns 0x00000000 (0000ms, 2517ms total)
T2024 003:559 JLINK_ReadReg(FPS4)  returns 0x00000000 (0000ms, 2517ms total)
T2024 003:559 JLINK_ReadReg(FPS5)  returns 0x00000000 (0000ms, 2517ms total)
T2024 003:559 JLINK_ReadReg(FPS6)  returns 0x00000000 (0000ms, 2517ms total)
T2024 003:559 JLINK_ReadReg(FPS7)  returns 0x00000000 (0000ms, 2517ms total)
T2024 003:559 JLINK_ReadReg(FPS8)  returns 0x00000000 (0000ms, 2517ms total)
T2024 003:559 JLINK_ReadReg(FPS9)  returns 0x00000000 (0000ms, 2517ms total)
T2024 003:559 JLINK_ReadReg(FPS10)  returns 0x00000000 (0000ms, 2517ms total)
T2024 003:559 JLINK_ReadReg(FPS11)  returns 0x00000000 (0000ms, 2517ms total)
T2024 003:559 JLINK_ReadReg(FPS12)  returns 0x00000000 (0000ms, 2517ms total)
T2024 003:559 JLINK_ReadReg(FPS13)  returns 0x00000000 (0000ms, 2517ms total)
T2024 003:559 JLINK_ReadReg(FPS14)  returns 0x00000000 (0000ms, 2517ms total)
T2024 003:559 JLINK_ReadReg(FPS15)  returns 0x00000000 (0000ms, 2517ms total)
T2024 003:559 JLINK_ReadReg(FPS16)  returns 0x00000000 (0000ms, 2517ms total)
T2024 003:559 JLINK_ReadReg(FPS17)  returns 0x00000000 (0000ms, 2517ms total)
T2024 003:559 JLINK_ReadReg(FPS18)  returns 0x00000000 (0000ms, 2517ms total)
T2024 003:559 JLINK_ReadReg(FPS19)  returns 0x00000000 (0000ms, 2517ms total)
T2024 003:559 JLINK_ReadReg(FPS20)  returns 0x00000000 (0001ms, 2518ms total)
T2024 003:560 JLINK_ReadReg(FPS21)  returns 0x00000000 (0000ms, 2518ms total)
T2024 003:560 JLINK_ReadReg(FPS22)  returns 0x00000000 (0000ms, 2518ms total)
T2024 003:560 JLINK_ReadReg(FPS23)  returns 0x00000000 (0000ms, 2518ms total)
T2024 003:560 JLINK_ReadReg(FPS24)  returns 0x00000000 (0000ms, 2518ms total)
T2024 003:560 JLINK_ReadReg(FPS25)  returns 0x00000000 (0000ms, 2518ms total)
T2024 003:560 JLINK_ReadReg(FPS26)  returns 0x00000000 (0000ms, 2518ms total)
T2024 003:560 JLINK_ReadReg(FPS27)  returns 0x00000000 (0000ms, 2518ms total)
T2024 003:560 JLINK_ReadReg(FPS28)  returns 0x00000000 (0000ms, 2518ms total)
T2024 003:560 JLINK_ReadReg(FPS29)  returns 0x00000000 (0000ms, 2518ms total)
T2024 003:560 JLINK_ReadReg(FPS30)  returns 0x00000000 (0000ms, 2518ms total)
T2024 003:560 JLINK_ReadReg(FPS31)  returns 0x00000000 (0000ms, 2518ms total)
T2B70 003:561 JLINK_ReadMemEx(0x00000000, 0x0004 Bytes, ..., Flags = 0x02000000) -- CPU_ReadMem(64 bytes @ 0x00000000) -- Updating C cache (64 bytes @ 0x00000000) -- Read from C cache (4 bytes @ 0x00000000) - Data: 40 06 00 20  returns 0x04 (0001ms, 2519ms total)
T2B70 003:571 JLINK_ReadMemU32(0xE0001004, 0x0001 Items, ...) -- CPU_ReadMem(4 bytes @ 0xE0001004) - Data: C1 12 00 00  returns 0x01 (0000ms, 2519ms total)
T2024 046:995 JLINK_ReadMemEx(0x00002594, 0x003C Bytes, ..., Flags = 0x02000000) -- CPU_ReadMem(128 bytes @ 0x00002580) -- Updating C cache (128 bytes @ 0x00002580) -- Read from C cache (60 bytes @ 0x00002594) - Data: FD F7 CA FF 52 48 FE F7 01 FE 52 48 FE F7 8E FE ...  returns 0x3C (0000ms, 2519ms total)
T2024 046:996 JLINK_ReadMemEx(0x00002594, 0x0002 Bytes, ..., Flags = 0x02000000) -- Read from C cache (2 bytes @ 0x00002594) - Data: FD F7  returns 0x02 (0000ms, 2519ms total)
T2024 046:996 JLINK_Step() -- Read from C cache (2 bytes @ 0x00002594) -- CPU_ReadMem(4 bytes @ 0xE000ED18) -- CPU_WriteMem(4 bytes @ 0xE000ED18) -- CPU_ReadMem(4 bytes @ 0xE000ED18) -- CPU_WriteMem(4 bytes @ 0xE000ED18) -- Read from C cache (2 bytes @ 0x00002596) -- Simulated  returns 0x00 (0001ms, 2520ms total)
T2024 046:997 JLINK_ReadReg(R15 (PC))  returns 0x0000052C (0000ms, 2520ms total)
T2024 046:997 JLINK_ReadReg(XPSR)  returns 0x61000000 (0000ms, 2520ms total)
T2024 046:997 JLINK_ReadReg(R0)  returns 0x00002595 (0000ms, 2520ms total)
T2024 046:997 JLINK_ReadReg(R1)  returns 0x20000640 (0000ms, 2520ms total)
T2024 046:997 JLINK_ReadReg(R2)  returns 0x00000000 (0000ms, 2520ms total)
T2024 046:997 JLINK_ReadReg(R3)  returns 0x000022F9 (0000ms, 2520ms total)
T2024 046:997 JLINK_ReadReg(R4)  returns 0x00003138 (0000ms, 2520ms total)
T2024 046:997 JLINK_ReadReg(R5)  returns 0x00003138 (0000ms, 2520ms total)
T2024 046:997 JLINK_ReadReg(R6)  returns 0x00000000 (0000ms, 2520ms total)
T2024 046:997 JLINK_ReadReg(R7)  returns 0x00000000 (0000ms, 2520ms total)
T2024 046:997 JLINK_ReadReg(R8)  returns 0x00000000 (0000ms, 2520ms total)
T2024 046:997 JLINK_ReadReg(R9)  returns 0x00000000 (0000ms, 2520ms total)
T2024 046:997 JLINK_ReadReg(R10)  returns 0x00000000 (0000ms, 2520ms total)
T2024 046:997 JLINK_ReadReg(R11)  returns 0x00000000 (0000ms, 2520ms total)
T2024 046:997 JLINK_ReadReg(R12)  returns 0x00000000 (0000ms, 2520ms total)
T2024 046:997 JLINK_ReadReg(R13 (SP))  returns 0x20000640 (0000ms, 2520ms total)
T2024 046:997 JLINK_ReadReg(R14)  returns 0x00002599 (0000ms, 2520ms total)
T2024 046:997 JLINK_ReadReg(R15 (PC))  returns 0x0000052C (0000ms, 2520ms total)
T2024 046:997 JLINK_ReadReg(XPSR)  returns 0x61000000 (0000ms, 2520ms total)
T2024 046:997 JLINK_ReadReg(MSP)  returns 0x20000640 (0000ms, 2520ms total)
T2024 046:997 JLINK_ReadReg(PSP)  returns 0x00000000 (0000ms, 2520ms total)
T2024 046:997 JLINK_ReadReg(CFBP)  returns 0x00000000 (0000ms, 2520ms total)
T2024 046:997 JLINK_ReadReg(FPSCR)  returns 0x00000000 (0000ms, 2520ms total)
T2024 046:997 JLINK_ReadReg(FPS0)  returns 0x00000000 (0000ms, 2520ms total)
T2024 046:997 JLINK_ReadReg(FPS1)  returns 0x00000000 (0000ms, 2520ms total)
T2024 046:997 JLINK_ReadReg(FPS2)  returns 0x00000000 (0000ms, 2520ms total)
T2024 046:997 JLINK_ReadReg(FPS3)  returns 0x00000000 (0000ms, 2520ms total)
T2024 046:997 JLINK_ReadReg(FPS4)  returns 0x00000000 (0000ms, 2520ms total)
T2024 046:997 JLINK_ReadReg(FPS5)  returns 0x00000000 (0000ms, 2520ms total)
T2024 046:997 JLINK_ReadReg(FPS6)  returns 0x00000000 (0000ms, 2520ms total)
T2024 046:997 JLINK_ReadReg(FPS7)  returns 0x00000000 (0000ms, 2520ms total)
T2024 046:997 JLINK_ReadReg(FPS8)  returns 0x00000000 (0000ms, 2520ms total)
T2024 046:997 JLINK_ReadReg(FPS9)  returns 0x00000000 (0000ms, 2520ms total)
T2024 046:997 JLINK_ReadReg(FPS10)  returns 0x00000000 (0000ms, 2520ms total)
T2024 046:997 JLINK_ReadReg(FPS11)  returns 0x00000000 (0000ms, 2520ms total)
T2024 046:997 JLINK_ReadReg(FPS12)  returns 0x00000000 (0001ms, 2521ms total)
T2024 046:998 JLINK_ReadReg(FPS13)  returns 0x00000000 (0000ms, 2521ms total)
T2024 046:998 JLINK_ReadReg(FPS14)  returns 0x00000000 (0000ms, 2521ms total)
T2024 046:998 JLINK_ReadReg(FPS15)  returns 0x00000000 (0000ms, 2521ms total)
T2024 046:998 JLINK_ReadReg(FPS16)  returns 0x00000000 (0000ms, 2521ms total)
T2024 046:998 JLINK_ReadReg(FPS17)  returns 0x00000000 (0000ms, 2521ms total)
T2024 046:998 JLINK_ReadReg(FPS18)  returns 0x00000000 (0000ms, 2521ms total)
T2024 046:998 JLINK_ReadReg(FPS19)  returns 0x00000000 (0000ms, 2521ms total)
T2024 046:998 JLINK_ReadReg(FPS20)  returns 0x00000000 (0000ms, 2521ms total)
T2024 046:998 JLINK_ReadReg(FPS21)  returns 0x00000000 (0000ms, 2521ms total)
T2024 046:998 JLINK_ReadReg(FPS22)  returns 0x00000000 (0000ms, 2521ms total)
T2024 046:998 JLINK_ReadReg(FPS23)  returns 0x00000000 (0000ms, 2521ms total)
T2024 046:998 JLINK_ReadReg(FPS24)  returns 0x00000000 (0000ms, 2521ms total)
T2024 046:998 JLINK_ReadReg(FPS25)  returns 0x00000000 (0000ms, 2521ms total)
T2024 046:998 JLINK_ReadReg(FPS26)  returns 0x00000000 (0000ms, 2521ms total)
T2024 046:998 JLINK_ReadReg(FPS27)  returns 0x00000000 (0000ms, 2521ms total)
T2024 046:998 JLINK_ReadReg(FPS28)  returns 0x00000000 (0000ms, 2521ms total)
T2024 046:998 JLINK_ReadReg(FPS29)  returns 0x00000000 (0000ms, 2521ms total)
T2024 046:998 JLINK_ReadReg(FPS30)  returns 0x00000000 (0000ms, 2521ms total)
T2024 046:998 JLINK_ReadReg(FPS31)  returns 0x00000000 (0000ms, 2521ms total)
T2B70 047:001 JLINK_ReadMemEx(0x00000000, 0x0004 Bytes, ..., Flags = 0x02000000) -- Read from C cache (4 bytes @ 0x00000000) - Data: 40 06 00 20  returns 0x04 (0000ms, 2521ms total)
T2B70 047:001 JLINK_ReadMemU32(0xE0001004, 0x0001 Items, ...) - Data: C2 12 00 00  returns 0x01 (0000ms, 2521ms total)
T2B70 047:003 JLINK_ReadMemEx(0x0000052C, 0x003C Bytes, ..., Flags = 0x02000000) -- CPU_ReadMem(128 bytes @ 0x00000500) -- Updating C cache (128 bytes @ 0x00000500) -- Read from C cache (60 bytes @ 0x0000052C) - Data: 02 48 01 68 41 F0 40 41 01 60 70 47 34 EF 00 E0 ...  returns 0x3C (0002ms, 2523ms total)
T2024 048:202 JLINK_ReadMemEx(0x0000052C, 0x0002 Bytes, ..., Flags = 0x02000000) -- Read from C cache (2 bytes @ 0x0000052C) - Data: 02 48  returns 0x02 (0000ms, 2523ms total)
T2024 048:202 JLINK_Step() -- Read from C cache (2 bytes @ 0x0000052C) -- Read from C cache (4 bytes @ 0x00000538) -- Simulated  returns 0x00 (0001ms, 2524ms total)
T2024 048:203 JLINK_ReadReg(R15 (PC))  returns 0x0000052E (0000ms, 2524ms total)
T2024 048:203 JLINK_ReadReg(XPSR)  returns 0x61000000 (0000ms, 2524ms total)
T2024 048:203 JLINK_ReadReg(R0)  returns 0xE000EF34 (0000ms, 2524ms total)
T2024 048:203 JLINK_ReadReg(R1)  returns 0x20000640 (0000ms, 2524ms total)
T2024 048:203 JLINK_ReadReg(R2)  returns 0x00000000 (0000ms, 2524ms total)
T2024 048:203 JLINK_ReadReg(R3)  returns 0x000022F9 (0000ms, 2524ms total)
T2024 048:203 JLINK_ReadReg(R4)  returns 0x00003138 (0000ms, 2524ms total)
T2024 048:203 JLINK_ReadReg(R5)  returns 0x00003138 (0000ms, 2524ms total)
T2024 048:203 JLINK_ReadReg(R6)  returns 0x00000000 (0000ms, 2524ms total)
T2024 048:203 JLINK_ReadReg(R7)  returns 0x00000000 (0000ms, 2524ms total)
T2024 048:203 JLINK_ReadReg(R8)  returns 0x00000000 (0000ms, 2524ms total)
T2024 048:203 JLINK_ReadReg(R9)  returns 0x00000000 (0000ms, 2524ms total)
T2024 048:203 JLINK_ReadReg(R10)  returns 0x00000000 (0000ms, 2524ms total)
T2024 048:203 JLINK_ReadReg(R11)  returns 0x00000000 (0000ms, 2524ms total)
T2024 048:203 JLINK_ReadReg(R12)  returns 0x00000000 (0000ms, 2524ms total)
T2024 048:203 JLINK_ReadReg(R13 (SP))  returns 0x20000640 (0000ms, 2524ms total)
T2024 048:203 JLINK_ReadReg(R14)  returns 0x00002599 (0000ms, 2524ms total)
T2024 048:203 JLINK_ReadReg(R15 (PC))  returns 0x0000052E (0000ms, 2524ms total)
T2024 048:203 JLINK_ReadReg(XPSR)  returns 0x61000000 (0000ms, 2524ms total)
T2024 048:203 JLINK_ReadReg(MSP)  returns 0x20000640 (0000ms, 2524ms total)
T2024 048:203 JLINK_ReadReg(PSP)  returns 0x00000000 (0000ms, 2524ms total)
T2024 048:203 JLINK_ReadReg(CFBP)  returns 0x00000000 (0000ms, 2524ms total)
T2024 048:203 JLINK_ReadReg(FPSCR)  returns 0x00000000 (0000ms, 2524ms total)
T2024 048:203 JLINK_ReadReg(FPS0)  returns 0x00000000 (0000ms, 2524ms total)
T2024 048:203 JLINK_ReadReg(FPS1)  returns 0x00000000 (0000ms, 2524ms total)
T2024 048:203 JLINK_ReadReg(FPS2)  returns 0x00000000 (0000ms, 2524ms total)
T2024 048:203 JLINK_ReadReg(FPS3)  returns 0x00000000 (0000ms, 2524ms total)
T2024 048:203 JLINK_ReadReg(FPS4)  returns 0x00000000 (0000ms, 2524ms total)
T2024 048:203 JLINK_ReadReg(FPS5)  returns 0x00000000 (0000ms, 2524ms total)
T2024 048:203 JLINK_ReadReg(FPS6)  returns 0x00000000 (0000ms, 2524ms total)
T2024 048:203 JLINK_ReadReg(FPS7)  returns 0x00000000 (0000ms, 2524ms total)
T2024 048:203 JLINK_ReadReg(FPS8)  returns 0x00000000 (0000ms, 2524ms total)
T2024 048:203 JLINK_ReadReg(FPS9)  returns 0x00000000 (0001ms, 2525ms total)
T2024 048:204 JLINK_ReadReg(FPS10)  returns 0x00000000 (0000ms, 2525ms total)
T2024 048:204 JLINK_ReadReg(FPS11)  returns 0x00000000 (0000ms, 2525ms total)
T2024 048:204 JLINK_ReadReg(FPS12)  returns 0x00000000 (0000ms, 2525ms total)
T2024 048:204 JLINK_ReadReg(FPS13)  returns 0x00000000 (0000ms, 2525ms total)
T2024 048:204 JLINK_ReadReg(FPS14)  returns 0x00000000 (0000ms, 2525ms total)
T2024 048:204 JLINK_ReadReg(FPS15)  returns 0x00000000 (0000ms, 2525ms total)
T2024 048:204 JLINK_ReadReg(FPS16)  returns 0x00000000 (0000ms, 2525ms total)
T2024 048:204 JLINK_ReadReg(FPS17)  returns 0x00000000 (0000ms, 2525ms total)
T2024 048:204 JLINK_ReadReg(FPS18)  returns 0x00000000 (0000ms, 2525ms total)
T2024 048:204 JLINK_ReadReg(FPS19)  returns 0x00000000 (0000ms, 2525ms total)
T2024 048:204 JLINK_ReadReg(FPS20)  returns 0x00000000 (0000ms, 2525ms total)
T2024 048:204 JLINK_ReadReg(FPS21)  returns 0x00000000 (0000ms, 2525ms total)
T2024 048:204 JLINK_ReadReg(FPS22)  returns 0x00000000 (0000ms, 2525ms total)
T2024 048:204 JLINK_ReadReg(FPS23)  returns 0x00000000 (0000ms, 2525ms total)
T2024 048:204 JLINK_ReadReg(FPS24)  returns 0x00000000 (0000ms, 2525ms total)
T2024 048:204 JLINK_ReadReg(FPS25)  returns 0x00000000 (0000ms, 2525ms total)
T2024 048:204 JLINK_ReadReg(FPS26)  returns 0x00000000 (0000ms, 2525ms total)
T2024 048:204 JLINK_ReadReg(FPS27)  returns 0x00000000 (0000ms, 2525ms total)
T2024 048:204 JLINK_ReadReg(FPS28)  returns 0x00000000 (0000ms, 2525ms total)
T2024 048:204 JLINK_ReadReg(FPS29)  returns 0x00000000 (0000ms, 2525ms total)
T2024 048:204 JLINK_ReadReg(FPS30)  returns 0x00000000 (0000ms, 2525ms total)
T2024 048:204 JLINK_ReadReg(FPS31)  returns 0x00000000 (0000ms, 2525ms total)
T2B70 048:205 JLINK_ReadMemEx(0x00000000, 0x0004 Bytes, ..., Flags = 0x02000000) -- Read from C cache (4 bytes @ 0x00000000) - Data: 40 06 00 20  returns 0x04 (0000ms, 2525ms total)
T2B70 048:205 JLINK_ReadMemU32(0xE0001004, 0x0001 Items, ...) - Data: C4 12 00 00  returns 0x01 (0000ms, 2525ms total)
T2024 048:826 JLINK_ReadMemEx(0x0000052E, 0x0002 Bytes, ..., Flags = 0x02000000) -- Read from C cache (2 bytes @ 0x0000052E) - Data: 01 68  returns 0x02 (0000ms, 2525ms total)
T2024 048:826 JLINK_Step() -- Read from C cache (2 bytes @ 0x0000052E) -- Not simulated -- CPU_WriteMem(4 bytes @ 0xE0002008) -- CPU_WriteMem(4 bytes @ 0xE0001004)  returns 0x00 (0004ms, 2529ms total)
T2024 048:830 JLINK_ReadReg(R15 (PC))  returns 0x00000530 (0000ms, 2529ms total)
T2024 048:830 JLINK_ReadReg(XPSR)  returns 0x61000000 (0000ms, 2529ms total)
T2024 048:830 JLINK_ReadReg(R0)  returns 0xE000EF34 (0000ms, 2529ms total)
T2024 048:830 JLINK_ReadReg(R1)  returns 0xC0000000 (0000ms, 2529ms total)
T2024 048:830 JLINK_ReadReg(R2)  returns 0x00000000 (0000ms, 2529ms total)
T2024 048:830 JLINK_ReadReg(R3)  returns 0x000022F9 (0000ms, 2529ms total)
T2024 048:830 JLINK_ReadReg(R4)  returns 0x00003138 (0000ms, 2529ms total)
T2024 048:830 JLINK_ReadReg(R5)  returns 0x00003138 (0000ms, 2529ms total)
T2024 048:830 JLINK_ReadReg(R6)  returns 0x00000000 (0000ms, 2529ms total)
T2024 048:830 JLINK_ReadReg(R7)  returns 0x00000000 (0000ms, 2529ms total)
T2024 048:830 JLINK_ReadReg(R8)  returns 0x00000000 (0000ms, 2529ms total)
T2024 048:830 JLINK_ReadReg(R9)  returns 0x00000000 (0000ms, 2529ms total)
T2024 048:830 JLINK_ReadReg(R10)  returns 0x00000000 (0000ms, 2529ms total)
T2024 048:830 JLINK_ReadReg(R11)  returns 0x00000000 (0000ms, 2529ms total)
T2024 048:830 JLINK_ReadReg(R12)  returns 0x00000000 (0000ms, 2529ms total)
T2024 048:830 JLINK_ReadReg(R13 (SP))  returns 0x20000640 (0000ms, 2529ms total)
T2024 048:830 JLINK_ReadReg(R14)  returns 0x00002599 (0000ms, 2529ms total)
T2024 048:830 JLINK_ReadReg(R15 (PC))  returns 0x00000530 (0000ms, 2529ms total)
T2024 048:830 JLINK_ReadReg(XPSR)  returns 0x61000000 (0000ms, 2529ms total)
T2024 048:830 JLINK_ReadReg(MSP)  returns 0x20000640 (0000ms, 2529ms total)
T2024 048:830 JLINK_ReadReg(PSP)  returns 0x00000000 (0000ms, 2529ms total)
T2024 048:830 JLINK_ReadReg(CFBP)  returns 0x00000000 (0000ms, 2529ms total)
T2024 048:830 JLINK_ReadReg(FPSCR)  returns 0x00000000 (0003ms, 2532ms total)
T2024 048:833 JLINK_ReadReg(FPS0)  returns 0x00000000 (0000ms, 2532ms total)
T2024 048:833 JLINK_ReadReg(FPS1)  returns 0x00000000 (0000ms, 2532ms total)
T2024 048:833 JLINK_ReadReg(FPS2)  returns 0x00000000 (0000ms, 2532ms total)
T2024 048:833 JLINK_ReadReg(FPS3)  returns 0x00000000 (0000ms, 2532ms total)
T2024 048:833 JLINK_ReadReg(FPS4)  returns 0x00000000 (0000ms, 2532ms total)
T2024 048:833 JLINK_ReadReg(FPS5)  returns 0x00000000 (0000ms, 2532ms total)
T2024 048:833 JLINK_ReadReg(FPS6)  returns 0x00000000 (0000ms, 2532ms total)
T2024 048:833 JLINK_ReadReg(FPS7)  returns 0x00000000 (0000ms, 2532ms total)
T2024 048:833 JLINK_ReadReg(FPS8)  returns 0x00000000 (0000ms, 2532ms total)
T2024 048:833 JLINK_ReadReg(FPS9)  returns 0x00000000 (0000ms, 2532ms total)
T2024 048:833 JLINK_ReadReg(FPS10)  returns 0x00000000 (0000ms, 2532ms total)
T2024 048:833 JLINK_ReadReg(FPS11)  returns 0x00000000 (0000ms, 2532ms total)
T2024 048:833 JLINK_ReadReg(FPS12)  returns 0x00000000 (0000ms, 2532ms total)
T2024 048:833 JLINK_ReadReg(FPS13)  returns 0x00000000 (0000ms, 2532ms total)
T2024 048:833 JLINK_ReadReg(FPS14)  returns 0x00000000 (0000ms, 2532ms total)
T2024 048:833 JLINK_ReadReg(FPS15)  returns 0x00000000 (0000ms, 2532ms total)
T2024 048:833 JLINK_ReadReg(FPS16)  returns 0x00000000 (0000ms, 2532ms total)
T2024 048:833 JLINK_ReadReg(FPS17)  returns 0x00000000 (0000ms, 2532ms total)
T2024 048:833 JLINK_ReadReg(FPS18)  returns 0x00000000 (0000ms, 2532ms total)
T2024 048:833 JLINK_ReadReg(FPS19)  returns 0x00000000 (0000ms, 2532ms total)
T2024 048:833 JLINK_ReadReg(FPS20)  returns 0x00000000 (0000ms, 2532ms total)
T2024 048:833 JLINK_ReadReg(FPS21)  returns 0x00000000 (0000ms, 2532ms total)
T2024 048:833 JLINK_ReadReg(FPS22)  returns 0x00000000 (0000ms, 2532ms total)
T2024 048:833 JLINK_ReadReg(FPS23)  returns 0x00000000 (0000ms, 2532ms total)
T2024 048:833 JLINK_ReadReg(FPS24)  returns 0x00000000 (0000ms, 2532ms total)
T2024 048:833 JLINK_ReadReg(FPS25)  returns 0x00000000 (0000ms, 2532ms total)
T2024 048:833 JLINK_ReadReg(FPS26)  returns 0x00000000 (0000ms, 2532ms total)
T2024 048:833 JLINK_ReadReg(FPS27)  returns 0x00000000 (0000ms, 2532ms total)
T2024 048:833 JLINK_ReadReg(FPS28)  returns 0x00000000 (0000ms, 2532ms total)
T2024 048:833 JLINK_ReadReg(FPS29)  returns 0x00000000 (0000ms, 2532ms total)
T2024 048:833 JLINK_ReadReg(FPS30)  returns 0x00000000 (0000ms, 2532ms total)
T2024 048:833 JLINK_ReadReg(FPS31)  returns 0x00000000 (0000ms, 2532ms total)
T2B70 048:834 JLINK_ReadMemEx(0x00000000, 0x0004 Bytes, ..., Flags = 0x02000000) -- CPU_ReadMem(64 bytes @ 0x00000000) -- Updating C cache (64 bytes @ 0x00000000) -- Read from C cache (4 bytes @ 0x00000000) - Data: 40 06 00 20  returns 0x04 (0001ms, 2533ms total)
T2B70 048:835 JLINK_ReadMemU32(0xE0001004, 0x0001 Items, ...) -- CPU_ReadMem(4 bytes @ 0xE0001004) - Data: C6 12 00 00  returns 0x01 (0001ms, 2534ms total)
T2024 048:957 JLINK_ReadMemEx(0x00000530, 0x0002 Bytes, ..., Flags = 0x02000000) -- CPU_ReadMem(64 bytes @ 0x00000500) -- Updating C cache (64 bytes @ 0x00000500) -- Read from C cache (2 bytes @ 0x00000530) - Data: 41 F0  returns 0x02 (0001ms, 2535ms total)
T2024 048:958 JLINK_Step() -- Read from C cache (2 bytes @ 0x00000530) -- Read from C cache (2 bytes @ 0x00000532) -- Simulated  returns 0x00 (0000ms, 2535ms total)
T2024 048:958 JLINK_ReadReg(R15 (PC))  returns 0x00000534 (0000ms, 2535ms total)
T2024 048:958 JLINK_ReadReg(XPSR)  returns 0x61000000 (0000ms, 2535ms total)
T2024 048:958 JLINK_ReadReg(R0)  returns 0xE000EF34 (0000ms, 2535ms total)
T2024 048:958 JLINK_ReadReg(R1)  returns 0xC0000000 (0000ms, 2535ms total)
T2024 048:958 JLINK_ReadReg(R2)  returns 0x00000000 (0000ms, 2535ms total)
T2024 048:958 JLINK_ReadReg(R3)  returns 0x000022F9 (0000ms, 2535ms total)
T2024 048:958 JLINK_ReadReg(R4)  returns 0x00003138 (0000ms, 2535ms total)
T2024 048:958 JLINK_ReadReg(R5)  returns 0x00003138 (0000ms, 2535ms total)
T2024 048:958 JLINK_ReadReg(R6)  returns 0x00000000 (0000ms, 2535ms total)
T2024 048:958 JLINK_ReadReg(R7)  returns 0x00000000 (0000ms, 2535ms total)
T2024 048:958 JLINK_ReadReg(R8)  returns 0x00000000 (0000ms, 2535ms total)
T2024 048:958 JLINK_ReadReg(R9)  returns 0x00000000 (0000ms, 2535ms total)
T2024 048:958 JLINK_ReadReg(R10)  returns 0x00000000 (0000ms, 2535ms total)
T2024 048:958 JLINK_ReadReg(R11)  returns 0x00000000 (0000ms, 2535ms total)
T2024 048:958 JLINK_ReadReg(R12)  returns 0x00000000 (0000ms, 2535ms total)
T2024 048:958 JLINK_ReadReg(R13 (SP))  returns 0x20000640 (0000ms, 2535ms total)
T2024 048:958 JLINK_ReadReg(R14)  returns 0x00002599 (0000ms, 2535ms total)
T2024 048:958 JLINK_ReadReg(R15 (PC))  returns 0x00000534 (0000ms, 2535ms total)
T2024 048:958 JLINK_ReadReg(XPSR)  returns 0x61000000 (0000ms, 2535ms total)
T2024 048:958 JLINK_ReadReg(MSP)  returns 0x20000640 (0000ms, 2535ms total)
T2024 048:958 JLINK_ReadReg(PSP)  returns 0x00000000 (0000ms, 2535ms total)
T2024 048:958 JLINK_ReadReg(CFBP)  returns 0x00000000 (0000ms, 2535ms total)
T2024 048:958 JLINK_ReadReg(FPSCR)  returns 0x00000000 (0000ms, 2535ms total)
T2024 048:958 JLINK_ReadReg(FPS0)  returns 0x00000000 (0000ms, 2535ms total)
T2024 048:958 JLINK_ReadReg(FPS1)  returns 0x00000000 (0000ms, 2535ms total)
T2024 048:958 JLINK_ReadReg(FPS2)  returns 0x00000000 (0000ms, 2535ms total)
T2024 048:958 JLINK_ReadReg(FPS3)  returns 0x00000000 (0000ms, 2535ms total)
T2024 048:958 JLINK_ReadReg(FPS4)  returns 0x00000000 (0001ms, 2536ms total)
T2024 048:959 JLINK_ReadReg(FPS5)  returns 0x00000000 (0000ms, 2536ms total)
T2024 048:959 JLINK_ReadReg(FPS6)  returns 0x00000000 (0000ms, 2536ms total)
T2024 048:959 JLINK_ReadReg(FPS7)  returns 0x00000000 (0000ms, 2536ms total)
T2024 048:959 JLINK_ReadReg(FPS8)  returns 0x00000000 (0000ms, 2536ms total)
T2024 048:959 JLINK_ReadReg(FPS9)  returns 0x00000000 (0000ms, 2536ms total)
T2024 048:959 JLINK_ReadReg(FPS10)  returns 0x00000000 (0000ms, 2536ms total)
T2024 048:959 JLINK_ReadReg(FPS11)  returns 0x00000000 (0000ms, 2536ms total)
T2024 048:959 JLINK_ReadReg(FPS12)  returns 0x00000000 (0000ms, 2536ms total)
T2024 048:959 JLINK_ReadReg(FPS13)  returns 0x00000000 (0000ms, 2536ms total)
T2024 048:959 JLINK_ReadReg(FPS14)  returns 0x00000000 (0000ms, 2536ms total)
T2024 048:959 JLINK_ReadReg(FPS15)  returns 0x00000000 (0000ms, 2536ms total)
T2024 048:959 JLINK_ReadReg(FPS16)  returns 0x00000000 (0000ms, 2536ms total)
T2024 048:959 JLINK_ReadReg(FPS17)  returns 0x00000000 (0000ms, 2536ms total)
T2024 048:959 JLINK_ReadReg(FPS18)  returns 0x00000000 (0000ms, 2536ms total)
T2024 048:959 JLINK_ReadReg(FPS19)  returns 0x00000000 (0000ms, 2536ms total)
T2024 048:959 JLINK_ReadReg(FPS20)  returns 0x00000000 (0000ms, 2536ms total)
T2024 048:959 JLINK_ReadReg(FPS21)  returns 0x00000000 (0000ms, 2536ms total)
T2024 048:959 JLINK_ReadReg(FPS22)  returns 0x00000000 (0000ms, 2536ms total)
T2024 048:959 JLINK_ReadReg(FPS23)  returns 0x00000000 (0000ms, 2536ms total)
T2024 048:959 JLINK_ReadReg(FPS24)  returns 0x00000000 (0000ms, 2536ms total)
T2024 048:959 JLINK_ReadReg(FPS25)  returns 0x00000000 (0000ms, 2536ms total)
T2024 048:959 JLINK_ReadReg(FPS26)  returns 0x00000000 (0000ms, 2536ms total)
T2024 048:959 JLINK_ReadReg(FPS27)  returns 0x00000000 (0000ms, 2536ms total)
T2024 048:959 JLINK_ReadReg(FPS28)  returns 0x00000000 (0000ms, 2536ms total)
T2024 048:959 JLINK_ReadReg(FPS29)  returns 0x00000000 (0000ms, 2536ms total)
T2024 048:959 JLINK_ReadReg(FPS30)  returns 0x00000000 (0000ms, 2536ms total)
T2024 048:959 JLINK_ReadReg(FPS31)  returns 0x00000000 (0000ms, 2536ms total)
T2B70 048:960 JLINK_ReadMemEx(0x00000000, 0x0004 Bytes, ..., Flags = 0x02000000) -- Read from C cache (4 bytes @ 0x00000000) - Data: 40 06 00 20  returns 0x04 (0000ms, 2536ms total)
T2B70 048:960 JLINK_ReadMemU32(0xE0001004, 0x0001 Items, ...) - Data: C7 12 00 00  returns 0x01 (0000ms, 2536ms total)
T2024 049:186 JLINK_ReadMemEx(0x00000534, 0x0002 Bytes, ..., Flags = 0x02000000) -- Read from C cache (2 bytes @ 0x00000534) - Data: 01 60  returns 0x02 (0000ms, 2536ms total)
T2024 049:186 JLINK_Step() -- Read from C cache (2 bytes @ 0x00000534) -- Not simulated -- CPU_WriteMem(4 bytes @ 0xE0001004)  returns 0x00 (0003ms, 2539ms total)
T2024 049:189 JLINK_ReadReg(R15 (PC))  returns 0x00000536 (0000ms, 2539ms total)
T2024 049:189 JLINK_ReadReg(XPSR)  returns 0x61000000 (0000ms, 2539ms total)
T2024 049:189 JLINK_ReadReg(R0)  returns 0xE000EF34 (0000ms, 2539ms total)
T2024 049:189 JLINK_ReadReg(R1)  returns 0xC0000000 (0000ms, 2539ms total)
T2024 049:189 JLINK_ReadReg(R2)  returns 0x00000000 (0000ms, 2539ms total)
T2024 049:189 JLINK_ReadReg(R3)  returns 0x000022F9 (0000ms, 2539ms total)
T2024 049:189 JLINK_ReadReg(R4)  returns 0x00003138 (0000ms, 2539ms total)
T2024 049:189 JLINK_ReadReg(R5)  returns 0x00003138 (0000ms, 2539ms total)
T2024 049:189 JLINK_ReadReg(R6)  returns 0x00000000 (0000ms, 2539ms total)
T2024 049:189 JLINK_ReadReg(R7)  returns 0x00000000 (0000ms, 2539ms total)
T2024 049:189 JLINK_ReadReg(R8)  returns 0x00000000 (0000ms, 2539ms total)
T2024 049:189 JLINK_ReadReg(R9)  returns 0x00000000 (0000ms, 2539ms total)
T2024 049:189 JLINK_ReadReg(R10)  returns 0x00000000 (0000ms, 2539ms total)
T2024 049:189 JLINK_ReadReg(R11)  returns 0x00000000 (0000ms, 2539ms total)
T2024 049:189 JLINK_ReadReg(R12)  returns 0x00000000 (0000ms, 2539ms total)
T2024 049:189 JLINK_ReadReg(R13 (SP))  returns 0x20000640 (0000ms, 2539ms total)
T2024 049:189 JLINK_ReadReg(R14)  returns 0x00002599 (0000ms, 2539ms total)
T2024 049:189 JLINK_ReadReg(R15 (PC))  returns 0x00000536 (0000ms, 2539ms total)
T2024 049:189 JLINK_ReadReg(XPSR)  returns 0x61000000 (0000ms, 2539ms total)
T2024 049:189 JLINK_ReadReg(MSP)  returns 0x20000640 (0000ms, 2539ms total)
T2024 049:189 JLINK_ReadReg(PSP)  returns 0x00000000 (0000ms, 2539ms total)
T2024 049:189 JLINK_ReadReg(CFBP)  returns 0x00000000 (0000ms, 2539ms total)
T2024 049:189 JLINK_ReadReg(FPSCR)  returns 0x00000000 (0004ms, 2543ms total)
T2024 049:193 JLINK_ReadReg(FPS0)  returns 0x00000000 (0000ms, 2543ms total)
T2024 049:193 JLINK_ReadReg(FPS1)  returns 0x00000000 (0000ms, 2543ms total)
T2024 049:193 JLINK_ReadReg(FPS2)  returns 0x00000000 (0000ms, 2543ms total)
T2024 049:193 JLINK_ReadReg(FPS3)  returns 0x00000000 (0000ms, 2543ms total)
T2024 049:193 JLINK_ReadReg(FPS4)  returns 0x00000000 (0000ms, 2543ms total)
T2024 049:193 JLINK_ReadReg(FPS5)  returns 0x00000000 (0000ms, 2543ms total)
T2024 049:193 JLINK_ReadReg(FPS6)  returns 0x00000000 (0000ms, 2543ms total)
T2024 049:193 JLINK_ReadReg(FPS7)  returns 0x00000000 (0000ms, 2543ms total)
T2024 049:193 JLINK_ReadReg(FPS8)  returns 0x00000000 (0000ms, 2543ms total)
T2024 049:193 JLINK_ReadReg(FPS9)  returns 0x00000000 (0000ms, 2543ms total)
T2024 049:193 JLINK_ReadReg(FPS10)  returns 0x00000000 (0000ms, 2543ms total)
T2024 049:193 JLINK_ReadReg(FPS11)  returns 0x00000000 (0000ms, 2543ms total)
T2024 049:193 JLINK_ReadReg(FPS12)  returns 0x00000000 (0000ms, 2543ms total)
T2024 049:193 JLINK_ReadReg(FPS13)  returns 0x00000000 (0000ms, 2543ms total)
T2024 049:193 JLINK_ReadReg(FPS14)  returns 0x00000000 (0000ms, 2543ms total)
T2024 049:193 JLINK_ReadReg(FPS15)  returns 0x00000000 (0000ms, 2543ms total)
T2024 049:193 JLINK_ReadReg(FPS16)  returns 0x00000000 (0000ms, 2543ms total)
T2024 049:193 JLINK_ReadReg(FPS17)  returns 0x00000000 (0000ms, 2543ms total)
T2024 049:193 JLINK_ReadReg(FPS18)  returns 0x00000000 (0000ms, 2543ms total)
T2024 049:193 JLINK_ReadReg(FPS19)  returns 0x00000000 (0000ms, 2543ms total)
T2024 049:193 JLINK_ReadReg(FPS20)  returns 0x00000000 (0000ms, 2543ms total)
T2024 049:193 JLINK_ReadReg(FPS21)  returns 0x00000000 (0000ms, 2543ms total)
T2024 049:193 JLINK_ReadReg(FPS22)  returns 0x00000000 (0000ms, 2543ms total)
T2024 049:193 JLINK_ReadReg(FPS23)  returns 0x00000000 (0000ms, 2543ms total)
T2024 049:193 JLINK_ReadReg(FPS24)  returns 0x00000000 (0000ms, 2543ms total)
T2024 049:193 JLINK_ReadReg(FPS25)  returns 0x00000000 (0000ms, 2543ms total)
T2024 049:193 JLINK_ReadReg(FPS26)  returns 0x00000000 (0000ms, 2543ms total)
T2024 049:193 JLINK_ReadReg(FPS27)  returns 0x00000000 (0000ms, 2543ms total)
T2024 049:193 JLINK_ReadReg(FPS28)  returns 0x00000000 (0000ms, 2543ms total)
T2024 049:193 JLINK_ReadReg(FPS29)  returns 0x00000000 (0000ms, 2543ms total)
T2024 049:193 JLINK_ReadReg(FPS30)  returns 0x00000000 (0000ms, 2543ms total)
T2024 049:193 JLINK_ReadReg(FPS31)  returns 0x00000000 (0000ms, 2543ms total)
T2B70 049:194 JLINK_ReadMemEx(0x00000000, 0x0004 Bytes, ..., Flags = 0x02000000) -- CPU_ReadMem(64 bytes @ 0x00000000) -- Updating C cache (64 bytes @ 0x00000000) -- Read from C cache (4 bytes @ 0x00000000) - Data: 40 06 00 20  returns 0x04 (0001ms, 2544ms total)
T2B70 049:195 JLINK_ReadMemU32(0xE0001004, 0x0001 Items, ...) -- CPU_ReadMem(4 bytes @ 0xE0001004) - Data: C9 12 00 00  returns 0x01 (0000ms, 2544ms total)
T2B70 049:198 JLINK_ReadMemEx(0x00000536, 0x0002 Bytes, ..., Flags = 0x02000000) -- CPU_ReadMem(64 bytes @ 0x00000500) -- Updating C cache (64 bytes @ 0x00000500) -- Read from C cache (2 bytes @ 0x00000536) - Data: 70 47  returns 0x02 (0004ms, 2548ms total)
T2B70 049:202 JLINK_ReadMemEx(0x00000538, 0x003C Bytes, ..., Flags = 0x02000000) -- CPU_ReadMem(64 bytes @ 0x00000540) -- Updating C cache (64 bytes @ 0x00000540) -- Read from C cache (60 bytes @ 0x00000538) - Data: 34 EF 00 E0 D0 F8 00 34 12 F0 01 0F 14 BF 0B 43 ...  returns 0x3C (0001ms, 2549ms total)
T2024 049:730 JLINK_ReadMemEx(0x00000536, 0x0002 Bytes, ..., Flags = 0x02000000) -- Read from C cache (2 bytes @ 0x00000536) - Data: 70 47  returns 0x02 (0000ms, 2549ms total)
T2024 049:730 JLINK_Step() -- Read from C cache (2 bytes @ 0x00000536) -- Simulated  returns 0x00 (0000ms, 2549ms total)
T2024 049:730 JLINK_ReadReg(R15 (PC))  returns 0x00002598 (0000ms, 2549ms total)
T2024 049:730 JLINK_ReadReg(XPSR)  returns 0x61000000 (0000ms, 2549ms total)
T2024 049:730 JLINK_ReadReg(R0)  returns 0xE000EF34 (0000ms, 2549ms total)
T2024 049:730 JLINK_ReadReg(R1)  returns 0xC0000000 (0000ms, 2549ms total)
T2024 049:730 JLINK_ReadReg(R2)  returns 0x00000000 (0000ms, 2549ms total)
T2024 049:730 JLINK_ReadReg(R3)  returns 0x000022F9 (0000ms, 2549ms total)
T2024 049:730 JLINK_ReadReg(R4)  returns 0x00003138 (0000ms, 2549ms total)
T2024 049:730 JLINK_ReadReg(R5)  returns 0x00003138 (0000ms, 2549ms total)
T2024 049:730 JLINK_ReadReg(R6)  returns 0x00000000 (0000ms, 2549ms total)
T2024 049:730 JLINK_ReadReg(R7)  returns 0x00000000 (0000ms, 2549ms total)
T2024 049:730 JLINK_ReadReg(R8)  returns 0x00000000 (0000ms, 2549ms total)
T2024 049:730 JLINK_ReadReg(R9)  returns 0x00000000 (0000ms, 2549ms total)
T2024 049:730 JLINK_ReadReg(R10)  returns 0x00000000 (0000ms, 2549ms total)
T2024 049:730 JLINK_ReadReg(R11)  returns 0x00000000 (0000ms, 2549ms total)
T2024 049:730 JLINK_ReadReg(R12)  returns 0x00000000 (0000ms, 2549ms total)
T2024 049:730 JLINK_ReadReg(R13 (SP))  returns 0x20000640 (0000ms, 2549ms total)
T2024 049:730 JLINK_ReadReg(R14)  returns 0x00002599 (0000ms, 2549ms total)
T2024 049:730 JLINK_ReadReg(R15 (PC))  returns 0x00002598 (0000ms, 2549ms total)
T2024 049:730 JLINK_ReadReg(XPSR)  returns 0x61000000 (0000ms, 2549ms total)
T2024 049:730 JLINK_ReadReg(MSP)  returns 0x20000640 (0000ms, 2549ms total)
T2024 049:730 JLINK_ReadReg(PSP)  returns 0x00000000 (0000ms, 2549ms total)
T2024 049:730 JLINK_ReadReg(CFBP)  returns 0x00000000 (0000ms, 2549ms total)
T2024 049:730 JLINK_ReadReg(FPSCR)  returns 0x00000000 (0000ms, 2549ms total)
T2024 049:730 JLINK_ReadReg(FPS0)  returns 0x00000000 (0000ms, 2549ms total)
T2024 049:730 JLINK_ReadReg(FPS1)  returns 0x00000000 (0000ms, 2549ms total)
T2024 049:730 JLINK_ReadReg(FPS2)  returns 0x00000000 (0000ms, 2549ms total)
T2024 049:730 JLINK_ReadReg(FPS3)  returns 0x00000000 (0000ms, 2549ms total)
T2024 049:730 JLINK_ReadReg(FPS4)  returns 0x00000000 (0000ms, 2549ms total)
T2024 049:730 JLINK_ReadReg(FPS5)  returns 0x00000000 (0000ms, 2549ms total)
T2024 049:730 JLINK_ReadReg(FPS6)  returns 0x00000000 (0000ms, 2549ms total)
T2024 049:730 JLINK_ReadReg(FPS7)  returns 0x00000000 (0000ms, 2549ms total)
T2024 049:730 JLINK_ReadReg(FPS8)  returns 0x00000000 (0000ms, 2549ms total)
T2024 049:730 JLINK_ReadReg(FPS9)  returns 0x00000000 (0000ms, 2549ms total)
T2024 049:730 JLINK_ReadReg(FPS10)  returns 0x00000000 (0000ms, 2549ms total)
T2024 049:730 JLINK_ReadReg(FPS11)  returns 0x00000000 (0000ms, 2549ms total)
T2024 049:730 JLINK_ReadReg(FPS12)  returns 0x00000000 (0000ms, 2549ms total)
T2024 049:730 JLINK_ReadReg(FPS13)  returns 0x00000000 (0000ms, 2549ms total)
T2024 049:730 JLINK_ReadReg(FPS14)  returns 0x00000000 (0001ms, 2550ms total)
T2024 049:731 JLINK_ReadReg(FPS15)  returns 0x00000000 (0000ms, 2550ms total)
T2024 049:731 JLINK_ReadReg(FPS16)  returns 0x00000000 (0000ms, 2550ms total)
T2024 049:731 JLINK_ReadReg(FPS17)  returns 0x00000000 (0000ms, 2550ms total)
T2024 049:731 JLINK_ReadReg(FPS18)  returns 0x00000000 (0000ms, 2550ms total)
T2024 049:731 JLINK_ReadReg(FPS19)  returns 0x00000000 (0000ms, 2550ms total)
T2024 049:731 JLINK_ReadReg(FPS20)  returns 0x00000000 (0000ms, 2550ms total)
T2024 049:731 JLINK_ReadReg(FPS21)  returns 0x00000000 (0000ms, 2550ms total)
T2024 049:731 JLINK_ReadReg(FPS22)  returns 0x00000000 (0000ms, 2550ms total)
T2024 049:731 JLINK_ReadReg(FPS23)  returns 0x00000000 (0000ms, 2550ms total)
T2024 049:731 JLINK_ReadReg(FPS24)  returns 0x00000000 (0000ms, 2550ms total)
T2024 049:731 JLINK_ReadReg(FPS25)  returns 0x00000000 (0000ms, 2550ms total)
T2024 049:731 JLINK_ReadReg(FPS26)  returns 0x00000000 (0000ms, 2550ms total)
T2024 049:731 JLINK_ReadReg(FPS27)  returns 0x00000000 (0000ms, 2550ms total)
T2024 049:731 JLINK_ReadReg(FPS28)  returns 0x00000000 (0000ms, 2550ms total)
T2024 049:731 JLINK_ReadReg(FPS29)  returns 0x00000000 (0000ms, 2550ms total)
T2024 049:731 JLINK_ReadReg(FPS30)  returns 0x00000000 (0000ms, 2550ms total)
T2024 049:731 JLINK_ReadReg(FPS31)  returns 0x00000000 (0000ms, 2550ms total)
T2B70 049:736 JLINK_ReadMemEx(0x00000000, 0x0004 Bytes, ..., Flags = 0x02000000) -- Read from C cache (4 bytes @ 0x00000000) - Data: 40 06 00 20  returns 0x04 (0000ms, 2550ms total)
T2B70 049:736 JLINK_ReadMemU32(0xE0001004, 0x0001 Items, ...) - Data: CA 12 00 00  returns 0x01 (0000ms, 2550ms total)
T2024 050:755 JLINK_ReadMemEx(0x00002598, 0x003C Bytes, ..., Flags = 0x02000000) -- CPU_ReadMem(128 bytes @ 0x00002580) -- Updating C cache (128 bytes @ 0x00002580) -- Read from C cache (60 bytes @ 0x00002598) - Data: 52 48 FE F7 01 FE 52 48 FE F7 8E FE 30 21 51 48 ...  returns 0x3C (0001ms, 2551ms total)
T2024 050:756 JLINK_ReadMemEx(0x00002598, 0x0002 Bytes, ..., Flags = 0x02000000) -- Read from C cache (2 bytes @ 0x00002598) - Data: 52 48  returns 0x02 (0000ms, 2551ms total)
T2024 050:756 JLINK_Step() -- Read from C cache (2 bytes @ 0x00002598) -- CPU_ReadMem(64 bytes @ 0x000026C0) -- Updating C cache (64 bytes @ 0x000026C0) -- Read from C cache (4 bytes @ 0x000026E4) -- Simulated  returns 0x00 (0001ms, 2552ms total)
T2024 050:757 JLINK_ReadReg(R15 (PC))  returns 0x0000259A (0000ms, 2552ms total)
T2024 050:757 JLINK_ReadReg(XPSR)  returns 0x61000000 (0000ms, 2552ms total)
T2024 050:757 JLINK_ReadMemEx(0x0000259A, 0x0002 Bytes, ..., Flags = 0x02000000) -- Read from C cache (2 bytes @ 0x0000259A) - Data: FE F7  returns 0x02 (0000ms, 2552ms total)
T2024 050:757 JLINK_ReadMemEx(0x0000259C, 0x003C Bytes, ..., Flags = 0x02000000) -- Read from C cache (60 bytes @ 0x0000259C) - Data: 01 FE 52 48 FE F7 8E FE 30 21 51 48 FE F7 94 F8 ...  returns 0x3C (0000ms, 2552ms total)
